
T35E98 000:312 SEGGER J-Link V5.02f Log File (0001ms, 0279ms total)
T35E98 000:312 DLL Compiled: Oct  2 2015 20:51:34 (0001ms, 0279ms total)
T35E98 000:312 Logging started @ 2016-11-24 12:12 (0001ms, 0279ms total)
T35E98 000:313 JLINK_SetWarnOutHandler(...) (0000ms, 0279ms total)
T35E98 000:313 JLINK_OpenEx(...)
Firmware: J-Link OpenSDA compiled Aug  1 2016 15:05:35
Hardware: V1.00
S/N: 621000000  returns O.K. (0276ms, 0555ms total)
T35E98 000:589 JLINK_SetErrorOutHandler(...) (0000ms, 0555ms total)
T35E98 000:589 JLINK_ExecCommand("ProjectFile = "C:\Users\Alex\Documents\Teaching\ECE492 - ESA\Code\git\ESA\MCU_Intro_UV5\I2C-Compass\JLinkSettings.ini"", ...)  returns 0x00 (0002ms, 0557ms total)
T35E98 000:597 JLINK_ExecCommand("Device = MKL25Z128xxx4", ...)Device "MKL25Z128XXX4" selected.  returns 0x00 (0007ms, 0564ms total)
T35E98 000:604 JLINK_ExecCommand("DisableConnectionTimeout", ...)  returns 0x01 (0001ms, 0565ms total)
T35E98 000:605 JLINK_GetHardwareVersion()  returns 0x2710 (0000ms, 0565ms total)
T35E98 000:605 JLINK_GetDLLVersion()  returns 50206 (0000ms, 0565ms total)
T35E98 000:605 JLINK_GetFirmwareString(...) (0000ms, 0565ms total)
T35E98 000:629 JLINK_GetDLLVersion()  returns 50206 (0000ms, 0565ms total)
T35E98 000:629 JLINK_GetCompileDateTime() (0000ms, 0565ms total)
T35E98 000:635 JLINK_GetFirmwareString(...) (0000ms, 0565ms total)
T35E98 000:642 JLINK_GetHardwareVersion()  returns 0x2710 (0000ms, 0565ms total)
T35E98 000:658 JLINK_TIF_Select(JLINKARM_TIF_SWD)  returns 0x00 (0002ms, 0567ms total)
T35E98 000:660 JLINK_SetSpeed(5000) (0000ms, 0567ms total)
T35E98 000:660 JLINK_GetId() >0x108 TIF>Found SWD-DP with ID 0x0BC11477 >0x0D TIF> >0x28 TIF> >0x0D TIF> >0x28 TIF> >0x0D TIF> >0x21 TIF> >0x0D TIF> >0x28 TIF> >0x0D TIF> >0x21 TIF> >0x0D TIF> >0x21 TIF> >0x0D TIF> >0x21 TIF> >0x0D TIF> >0x21 TIF> >0x0D TIF> >0x21 TIF> >0x0D TIF> >0x21 TIF> >0x0D TIF> >0x21 TIF> >0x0D TIF> >0x21 TIF> >0x0D TIF> >0x21 TIF> >0x0D TIF> >0x21 TIF> >0x0D TIF> >0x21 TIF> >0x0D TIF> >0x21 TIF> >0x0D TIF> >0x21 TIF> >0x0D TIF> >0x21 TIF> >0x0D TIF> >0x21 TIF> >0x0D TIF>
 >0x21 TIF> >0x0D TIF> >0x21 TIF> >0x0D TIF> >0x21 TIF> >0x0D TIF> >0x21 TIF> >0x0D TIF> >0x21 TIF> >0x0D TIF> >0x21 TIF> >0x0D TIF> >0x21 TIF> >0x0D TIF> >0x21 TIF> >0x0D TIF> >0x21 TIF> >0x0D TIF> >0x21 TIF> >0x0D TIF> >0x21 TIF> >0x0D TIF> >0x21 TIF> >0x0D TIF> >0x21 TIF> >0x0D TIF> >0x21 TIF> >0x0D TIF> >0x21 TIF> >0x0D TIF> >0x21 TIF> >0x0D TIF> >0x21 TIF> >0x0D TIF> >0x21 TIF> >0x0D TIF> >0x21 TIF> >0x0D TIF> >0x21 TIF> >0x0D TIF> >0x21 TIF> >0x0D TIF> >0x21 TIF> >0x0D TIF> >0x21 TIF> >0x0D TIF>
 >0x21 TIF> >0x0D TIF> >0x21 TIF> >0x0D TIF> >0x21 TIF> >0x0D TIF> >0x21 TIF> >0x0D TIF> >0x21 TIF> >0x0D TIF> >0x21 TIF> >0x0D TIF> >0x21 TIF> >0x0D TIF> >0x21 TIF> >0x0D TIF> >0x21 TIF> >0x0D TIF> >0x21 TIF> >0x0D TIF> >0x21 TIF> >0x0D TIF> >0x21 TIF> >0x0D TIF> >0x21 TIF> >0x0D TIF> >0x21 TIF> >0x0D TIF> >0x21 TIF> >0x0D TIF> >0x21 TIF> >0x0D TIF> >0x21 TIF> >0x0D TIF> >0x21 TIF> >0x0D TIF> >0x28 TIF> >0x0D TIF> >0x28 TIF> >0x0D TIF> >0x28 TIF> >0x0D TIF> >0x21 TIF> >0x0D TIF> >0x21 TIF> >0x108 TIF>
Found SWD-DP with ID 0x0BC11477 >0x0D TIF> >0x21 TIF> >0x0D TIF> >0x28 TIF> >0x0D TIF> >0x28 TIF> >0x0D TIF> >0x21 TIF> >0x0D TIF> >0x28 TIF> >0x0D TIF> >0x21 TIF> >0x0D TIF> >0x21 TIF> >0x0D TIF> >0x21 TIF> >0x0D TIF> >0x28 TIF> >0x0D TIF> >0x28 TIF> >0x0D TIF> >0x28 TIF> >0x0D TIF> >0x21 TIF> >0x0D TIF> >0x21 TIF> >0x0D TIF> >0x28 TIF> >0x0D TIF> >0x21 TIF> >0x0D TIF> >0x21 TIF> >0x0D TIF> >0x21 TIF> >0x0D TIF> >0x21 TIF> >0x0D TIF> >0x21 TIF> >0x0D TIF> >0x28 TIF> >0x0D TIF> >0x21 TIF> >0x0D TIF>
 >0x21 TIF> >0x0D TIF> >0x28 TIF> >0x0D TIF> >0x21 TIF> >0x0D TIF> >0x21 TIF> >0x0D TIF> >0x21 TIF> >0x0D TIF> >0x21 TIF> >0x0D TIF> >0x21 TIF> >0x0D TIF> >0x28 TIF> >0x0D TIF> >0x21 TIF> >0x0D TIF> >0x21 TIF> >0x0D TIF> >0x21 TIF> >0x0D TIF> >0x28 TIF> >0x0D TIF> >0x28 TIF> >0x0D TIF> >0x21 TIF> >0x0D TIF> >0x28 TIF> >0x0D TIF> >0x28 TIF> >0x0D TIF> >0x28 TIF> >0x0D TIF> >0x21 TIF> >0x0D TIF> >0x21 TIF> >0x0D TIF> >0x28 TIF> >0x0D TIF> >0x21 TIF> >0x0D TIF> >0x21 TIF>Found Cortex-M0 r0p0, Little endian.
 -- CPU_ReadMem(4 bytes @ 0xE000EDF0) -- CPU_ReadMem(4 bytes @ 0xE0002000)FPUnit: 2 code (BP) slots and 0 literal slots -- CPU_ReadMem(4 bytes @ 0xE000EDFC) -- CPU_ReadMem(4 bytes @ 0xE0001000) -- CPU_WriteMem(4 bytes @ 0xE0001000)CoreSight components:ROMTbl 0 @ F0002000 -- CPU_ReadMem(16 bytes @ 0xF0002000) -- CPU_ReadMem(16 bytes @ 0xF0000FF0) -- CPU_ReadMem(16 bytes @ 0xF0000FE0)ROMTbl 0 [0]: FFFFE000, CID: B105900D, PID: 000BB932 MTB-M0+ -- CPU_ReadMem(16 bytes @ 0xF0001FF0)
 -- CPU_ReadMem(16 bytes @ 0xF0001FE0)ROMTbl 0 [1]: FFFFF000, CID: B105900D, PID: 0008E000 MTBDWT -- CPU_ReadMem(16 bytes @ 0xE00FFFF0) -- CPU_ReadMem(16 bytes @ 0xE00FFFE0)ROMTbl 0 [2]: F00FD000, CID: B105100D, PID: 000BB4C0 ROM TableROMTbl 1 @ E00FF000 -- CPU_ReadMem(16 bytes @ 0xE00FF000) -- CPU_ReadMem(16 bytes @ 0xE000EFF0) -- CPU_ReadMem(16 bytes @ 0xE000EFE0)ROMTbl 1 [0]: FFF0F000, CID: B105E00D, PID: 000BB008 SCS -- CPU_ReadMem(16 bytes @ 0xE0001FF0) -- CPU_ReadMem(16 bytes @ 0xE0001FE0)
ROMTbl 1 [1]: FFF02000, CID: B105E00D, PID: 000BB00A DWT -- CPU_ReadMem(16 bytes @ 0xE0002FF0) -- CPU_ReadMem(16 bytes @ 0xE0002FE0)ROMTbl 1 [2]: FFF03000, CID: B105E00D, PID: 000BB00B FPB >0x0D TIF> >0x21 TIF>  returns 0x0BC11477 (0203ms, 0770ms total)
T35E98 000:864 JLINK_GetDLLVersion()  returns 50206 (0000ms, 0771ms total)
T35E98 000:864 JLINK_CORE_GetFound()  returns 0x60000FF (0000ms, 0771ms total)
T35E98 000:864 JLINK_GetDebugInfo(0x100) -- Value=0xF0002003  returns 0x00 (0000ms, 0771ms total)
T35E98 000:869 JLINK_GetDebugInfo(0x100) -- Value=0xF0002003  returns 0x00 (0000ms, 0771ms total)
T35E98 000:869 JLINK_GetDebugInfo(0x101) -- Value=0x00000000  returns 0x00 (0000ms, 0771ms total)
T35E98 000:869 JLINK_ReadMem (0xE0041FF0, 0x0010 Bytes, ...) -- CPU is running -- CPU_ReadMem(16 bytes @ 0xE0041FF0) - Data: 00 00 00 00 00 00 00 00 00 00 00 00 00 00 00 00  returns 0x00 (0001ms, 0772ms total)
T35E98 000:870 JLINK_GetDebugInfo(0x102) -- Value=0xF0000000  returns 0x00 (0000ms, 0772ms total)
T35E98 000:870 JLINK_CORE_GetFound()  returns 0x60000FF (0000ms, 0772ms total)
T35E98 000:870 JLINK_GetDebugInfo(0x103) -- Value=0x00000000  returns 0x00 (0000ms, 0772ms total)
T35E98 000:870 JLINK_ReadMem (0xE0040FF0, 0x0010 Bytes, ...) -- CPU is running -- CPU_ReadMem(16 bytes @ 0xE0040FF0) - Data: 00 00 00 00 00 00 00 00 00 00 00 00 00 00 00 00  returns 0x00 (0001ms, 0773ms total)
T35E98 000:871 JLINK_GetDebugInfo(0x104) -- Value=0xE0000000  returns 0x00 (0000ms, 0773ms total)
T35E98 000:871 JLINK_GetDebugInfo(0x105) -- Value=0xE0001000  returns 0x00 (0000ms, 0773ms total)
T35E98 000:872 JLINK_GetDebugInfo(0x106) -- Value=0xE0002000  returns 0x00 (0000ms, 0774ms total)
T35E98 000:872 JLINK_GetDebugInfo(0x107) -- Value=0xE000E000  returns 0x00 (0000ms, 0774ms total)
T35E98 000:872 JLINK_GetDebugInfo(0x10C) -- Value=0xE000EDF0  returns 0x00 (0000ms, 0774ms total)
T35E98 000:872 JLINK_ReadMemU32(0xE000ED00, 0x0001 Items, ...) -- CPU is running -- CPU_ReadMem(4 bytes @ 0xE000ED00) - Data: 00 C6 0C 41  returns 0x01 (0001ms, 0775ms total)
T35E98 000:873 JLINK_SetResetType(JLINKARM_RESET_TYPE_NORMAL)  returns JLINKARM_RESET_TYPE_NORMAL (0000ms, 0775ms total)
T35E98 000:873 JLINK_Reset() -- CPU is running -- CPU_WriteMem(4 bytes @ 0xE000EDF0) -- CPU is running -- CPU_WriteMem(4 bytes @ 0xE000EDFC) >0x35 TIF> -- CPU is running -- CPU_WriteMem(4 bytes @ 0xE000ED0C) -- CPU is running -- CPU_ReadMem(4 bytes @ 0xE000EDF0) -- CPU is running -- CPU_ReadMem(4 bytes @ 0xE000EDF0) -- CPU is running -- CPU_WriteMem(4 bytes @ 0xE000EDF0) -- CPU is running -- CPU_WriteMem(4 bytes @ 0xE000EDFC) -- CPU is running -- CPU_ReadMem(4 bytes @ 0xE000EDF0)
 -- CPU_WriteMem(4 bytes @ 0xE0002000) -- CPU_ReadMem(4 bytes @ 0xE000EDFC) -- CPU_ReadMem(4 bytes @ 0xE0001000) -- CPU_WriteMem(4 bytes @ 0xE0001000) (0024ms, 0799ms total)
T35E98 000:897 JLINK_Halt()  returns 0x00 (0000ms, 0799ms total)
T35E98 000:897 JLINK_IsHalted()  returns TRUE (0000ms, 0799ms total)
T35E98 000:897 JLINK_ReadMemU32(0xE000EDF0, 0x0001 Items, ...) -- CPU_ReadMem(4 bytes @ 0xE000EDF0) - Data: 03 00 03 00  returns 0x01 (0001ms, 0800ms total)
T35E98 000:898 JLINK_WriteU32(0xE000EDF0, 0xA05F0003) -- CPU_WriteMem(4 bytes @ 0xE000EDF0)  returns 0x00 (0001ms, 0801ms total)
T35E98 000:899 JLINK_WriteU32(0xE000EDFC, 0x01000000) -- CPU_WriteMem(4 bytes @ 0xE000EDFC)  returns 0x00 (0000ms, 0801ms total)
T35E98 000:922 JLINK_GetHWStatus(...)  returns 0x00 (0000ms, 0801ms total)
T35E98 000:939 JLINK_GetNumBPUnits(Type = 0xFFFFFF00)  returns 0x02 (0000ms, 0801ms total)
T35E98 000:939 JLINK_GetNumBPUnits(Type = 0xF0)  returns 0x2000 (0000ms, 0801ms total)
T35E98 000:939 JLINK_GetNumWPUnits()  returns 0x02 (0000ms, 0801ms total)
T35E98 000:954 JLINK_GetSpeed()  returns 0x595 (0000ms, 0801ms total)
T35E98 000:964 JLINK_ReadMemU32(0xE000E004, 0x0001 Items, ...) -- CPU_ReadMem(4 bytes @ 0xE000E004) - Data: 00 00 00 00  returns 0x01 (0001ms, 0802ms total)
T35E98 000:965 JLINK_Halt()  returns 0x00 (0000ms, 0802ms total)
T35E98 000:965 JLINK_IsHalted()  returns TRUE (0000ms, 0802ms total)
T35E98 000:971 JLINK_WriteMem(0x1FFFF000, 0x0620 Bytes, ...) - Data: 00 BE 0A E0 0D 78 2D 06 68 40 08 24 40 00 00 D3 ... -- CPU_WriteMem(1568 bytes @ 0x1FFFF000)  returns 0x620 (0019ms, 0821ms total)
T35E98 000:990 JLINK_WriteReg(R0, 0x00000000)  returns 0x00 (0000ms, 0821ms total)
T35E98 000:990 JLINK_WriteReg(R1, 0x00B71B00)  returns 0x00 (0000ms, 0821ms total)
T35E98 000:990 JLINK_WriteReg(R2, 0x00000001)  returns 0x00 (0000ms, 0821ms total)
T35E98 000:990 JLINK_WriteReg(R3, 0x00000000)  returns 0x00 (0000ms, 0821ms total)
T35E98 000:990 JLINK_WriteReg(R4, 0x00000000)  returns 0x00 (0000ms, 0821ms total)
T35E98 000:990 JLINK_WriteReg(R5, 0x00000000)  returns 0x00 (0000ms, 0821ms total)
T35E98 000:990 JLINK_WriteReg(R6, 0x00000000)  returns 0x00 (0000ms, 0821ms total)
T35E98 000:990 JLINK_WriteReg(R7, 0x00000000)  returns 0x00 (0000ms, 0821ms total)
T35E98 000:990 JLINK_WriteReg(R8, 0x00000000)  returns 0x00 (0000ms, 0821ms total)
T35E98 000:990 JLINK_WriteReg(R9, 0x1FFFF618)  returns 0x00 (0000ms, 0821ms total)
T35E98 000:990 JLINK_WriteReg(R10, 0x00000000)  returns 0x00 (0000ms, 0821ms total)
T35E98 000:990 JLINK_WriteReg(R11, 0x00000000)  returns 0x00 (0000ms, 0821ms total)
T35E98 000:990 JLINK_WriteReg(R12, 0x00000000)  returns 0x00 (0000ms, 0821ms total)
T35E98 000:990 JLINK_WriteReg(R13 (SP), 0x20003000)  returns 0x00 (0000ms, 0821ms total)
T35E98 000:990 JLINK_WriteReg(R14, 0x1FFFF001)  returns 0x00 (0000ms, 0821ms total)
T35E98 000:990 JLINK_WriteReg(R15 (PC), 0x1FFFF020)  returns 0x00 (0000ms, 0821ms total)
T35E98 000:990 JLINK_WriteReg(XPSR, 0x01000000)  returns 0x00 (0000ms, 0821ms total)
T35E98 000:990 JLINK_WriteReg(MSP, 0x20003000)  returns 0x00 (0000ms, 0821ms total)
T35E98 000:990 JLINK_WriteReg(PSP, 0x20003000)  returns 0x00 (0000ms, 0821ms total)
T35E98 000:991 JLINK_WriteReg(CFBP, 0x00000000)  returns 0x00 (0000ms, 0822ms total)
T35E98 000:991 JLINK_SetBPEx(Addr = 0x1FFFF000, Type = 0xFFFFFFF2)  returns 0x00000001 (0000ms, 0822ms total)
T35E98 000:991 JLINK_Go() -- CPU_WriteMem(4 bytes @ 0xE0002000) -- CPU_ReadMem(4 bytes @ 0xE0001000) -- CPU_WriteMem(4 bytes @ 0xE0001000) -- CPU_WriteMem(4 bytes @ 0xE0002008) -- CPU_WriteMem(4 bytes @ 0xE000200C) -- CPU_WriteMem(4 bytes @ 0xE0001004) (0007ms, 0829ms total)
T35E98 000:998 JLINK_IsHalted()  returns TRUE (0006ms, 0835ms total)
T35E98 001:004 JLINK_ReadReg(R15 (PC))  returns 0x1FFFF000 (0000ms, 0829ms total)
T35E98 001:004 JLINK_ClrBPEx(BPHandle = 0x00000001)  returns 0x00 (0000ms, 0829ms total)
T35E98 001:004 JLINK_ReadReg(R0)  returns 0x00000000 (0000ms, 0829ms total)
T35E98 001:005 JLINK_WriteReg(R0, 0x00000000)  returns 0x00 (0000ms, 0829ms total)
T35E98 001:005 JLINK_WriteReg(R1, 0x00000400)  returns 0x00 (0000ms, 0829ms total)
T35E98 001:005 JLINK_WriteReg(R2, 0x000000FF)  returns 0x00 (0000ms, 0829ms total)
T35E98 001:005 JLINK_WriteReg(R3, 0x00000000)  returns 0x00 (0000ms, 0829ms total)
T35E98 001:005 JLINK_WriteReg(R4, 0x00000000)  returns 0x00 (0000ms, 0829ms total)
T35E98 001:005 JLINK_WriteReg(R5, 0x00000000)  returns 0x00 (0000ms, 0829ms total)
T35E98 001:005 JLINK_WriteReg(R6, 0x00000000)  returns 0x00 (0000ms, 0829ms total)
T35E98 001:005 JLINK_WriteReg(R7, 0x00000000)  returns 0x00 (0000ms, 0829ms total)
T35E98 001:005 JLINK_WriteReg(R8, 0x00000000)  returns 0x00 (0000ms, 0829ms total)
T35E98 001:005 JLINK_WriteReg(R9, 0x1FFFF618)  returns 0x00 (0000ms, 0829ms total)
T35E98 001:005 JLINK_WriteReg(R10, 0x00000000)  returns 0x00 (0000ms, 0829ms total)
T35E98 001:005 JLINK_WriteReg(R11, 0x00000000)  returns 0x00 (0000ms, 0829ms total)
T35E98 001:005 JLINK_WriteReg(R12, 0x00000000)  returns 0x00 (0000ms, 0829ms total)
T35E98 001:005 JLINK_WriteReg(R13 (SP), 0x20003000)  returns 0x00 (0000ms, 0829ms total)
T35E98 001:005 JLINK_WriteReg(R14, 0x1FFFF001)  returns 0x00 (0000ms, 0829ms total)
T35E98 001:005 JLINK_WriteReg(R15 (PC), 0x1FFFF068)  returns 0x00 (0000ms, 0829ms total)
T35E98 001:005 JLINK_WriteReg(XPSR, 0x01000000)  returns 0x00 (0001ms, 0830ms total)
T35E98 001:006 JLINK_WriteReg(MSP, 0x20003000)  returns 0x00 (0000ms, 0830ms total)
T35E98 001:006 JLINK_WriteReg(PSP, 0x20003000)  returns 0x00 (0000ms, 0830ms total)
T35E98 001:006 JLINK_WriteReg(CFBP, 0x00000000)  returns 0x00 (0000ms, 0830ms total)
T35E98 001:006 JLINK_SetBPEx(Addr = 0x1FFFF000, Type = 0xFFFFFFF2)  returns 0x00000002 (0000ms, 0830ms total)
T35E98 001:006 JLINK_Go() -- CPU_WriteMem(4 bytes @ 0xE0002000) -- CPU_ReadMem(4 bytes @ 0xE0001000) -- CPU_WriteMem(4 bytes @ 0xE0001000) (0005ms, 0835ms total)
T35E98 001:011 JLINK_IsHalted()  returns TRUE (0005ms, 0840ms total)
T35E98 001:016 JLINK_ReadReg(R15 (PC))  returns 0x1FFFF000 (0000ms, 0835ms total)
T35E98 001:016 JLINK_ClrBPEx(BPHandle = 0x00000002)  returns 0x00 (0000ms, 0835ms total)
T35E98 001:016 JLINK_ReadReg(R0)  returns 0x00000001 (0000ms, 0835ms total)
T35E98 001:016 JLINK_WriteReg(R0, 0x00000000)  returns 0x00 (0000ms, 0835ms total)
T35E98 001:016 JLINK_WriteReg(R1, 0x00000400)  returns 0x00 (0000ms, 0835ms total)
T35E98 001:016 JLINK_WriteReg(R2, 0x000000FF)  returns 0x00 (0000ms, 0835ms total)
T35E98 001:016 JLINK_WriteReg(R3, 0x00000000)  returns 0x00 (0000ms, 0835ms total)
T35E98 001:016 JLINK_WriteReg(R4, 0x00000000)  returns 0x00 (0000ms, 0835ms total)
T35E98 001:016 JLINK_WriteReg(R5, 0x00000000)  returns 0x00 (0001ms, 0836ms total)
T35E98 001:017 JLINK_WriteReg(R6, 0x00000000)  returns 0x00 (0000ms, 0836ms total)
T35E98 001:017 JLINK_WriteReg(R7, 0x00000000)  returns 0x00 (0000ms, 0836ms total)
T35E98 001:017 JLINK_WriteReg(R8, 0x00000000)  returns 0x00 (0000ms, 0836ms total)
T35E98 001:017 JLINK_WriteReg(R9, 0x1FFFF618)  returns 0x00 (0000ms, 0836ms total)
T35E98 001:017 JLINK_WriteReg(R10, 0x00000000)  returns 0x00 (0000ms, 0836ms total)
T35E98 001:017 JLINK_WriteReg(R11, 0x00000000)  returns 0x00 (0000ms, 0836ms total)
T35E98 001:017 JLINK_WriteReg(R12, 0x00000000)  returns 0x00 (0000ms, 0836ms total)
T35E98 001:017 JLINK_WriteReg(R13 (SP), 0x20003000)  returns 0x00 (0000ms, 0836ms total)
T35E98 001:017 JLINK_WriteReg(R14, 0x1FFFF001)  returns 0x00 (0000ms, 0836ms total)
T35E98 001:017 JLINK_WriteReg(R15 (PC), 0x1FFFF0BC)  returns 0x00 (0000ms, 0836ms total)
T35E98 001:017 JLINK_WriteReg(XPSR, 0x01000000)  returns 0x00 (0000ms, 0836ms total)
T35E98 001:017 JLINK_WriteReg(MSP, 0x20003000)  returns 0x00 (0000ms, 0836ms total)
T35E98 001:017 JLINK_WriteReg(PSP, 0x20003000)  returns 0x00 (0000ms, 0836ms total)
T35E98 001:017 JLINK_WriteReg(CFBP, 0x00000000)  returns 0x00 (0000ms, 0836ms total)
T35E98 001:017 JLINK_SetBPEx(Addr = 0x1FFFF000, Type = 0xFFFFFFF2)  returns 0x00000003 (0000ms, 0836ms total)
T35E98 001:017 JLINK_Go() -- CPU_WriteMem(4 bytes @ 0xE0002000) -- CPU_ReadMem(4 bytes @ 0xE0001000) -- CPU_WriteMem(4 bytes @ 0xE0001000) (0005ms, 0841ms total)
T35E98 001:023 JLINK_IsHalted()  returns FALSE (0000ms, 0842ms total)
T35E98 001:205 JLINK_IsHalted()  returns TRUE (0006ms, 0848ms total)
T35E98 001:211 JLINK_ReadReg(R15 (PC))  returns 0x1FFFF000 (0000ms, 0842ms total)
T35E98 001:211 JLINK_ClrBPEx(BPHandle = 0x00000003)  returns 0x00 (0000ms, 0842ms total)
T35E98 001:211 JLINK_ReadReg(R0)  returns 0x00000000 (0000ms, 0842ms total)
T35E98 001:212 JLINK_WriteReg(R0, 0x00000400)  returns 0x00 (0000ms, 0842ms total)
T35E98 001:212 JLINK_WriteReg(R1, 0x00000400)  returns 0x00 (0000ms, 0842ms total)
T35E98 001:212 JLINK_WriteReg(R2, 0x000000FF)  returns 0x00 (0000ms, 0842ms total)
T35E98 001:212 JLINK_WriteReg(R3, 0x00000000)  returns 0x00 (0000ms, 0842ms total)
T35E98 001:212 JLINK_WriteReg(R4, 0x00000000)  returns 0x00 (0000ms, 0842ms total)
T35E98 001:212 JLINK_WriteReg(R5, 0x00000000)  returns 0x00 (0000ms, 0842ms total)
T35E98 001:212 JLINK_WriteReg(R6, 0x00000000)  returns 0x00 (0000ms, 0842ms total)
T35E98 001:212 JLINK_WriteReg(R7, 0x00000000)  returns 0x00 (0000ms, 0842ms total)
T35E98 001:212 JLINK_WriteReg(R8, 0x00000000)  returns 0x00 (0000ms, 0842ms total)
T35E98 001:212 JLINK_WriteReg(R9, 0x1FFFF618)  returns 0x00 (0000ms, 0842ms total)
T35E98 001:212 JLINK_WriteReg(R10, 0x00000000)  returns 0x00 (0000ms, 0842ms total)
T35E98 001:212 JLINK_WriteReg(R11, 0x00000000)  returns 0x00 (0000ms, 0842ms total)
T35E98 001:212 JLINK_WriteReg(R12, 0x00000000)  returns 0x00 (0000ms, 0842ms total)
T35E98 001:212 JLINK_WriteReg(R13 (SP), 0x20003000)  returns 0x00 (0000ms, 0842ms total)
T35E98 001:212 JLINK_WriteReg(R14, 0x1FFFF001)  returns 0x00 (0000ms, 0842ms total)
T35E98 001:212 JLINK_WriteReg(R15 (PC), 0x1FFFF068)  returns 0x00 (0000ms, 0842ms total)
T35E98 001:212 JLINK_WriteReg(XPSR, 0x01000000)  returns 0x00 (0001ms, 0843ms total)
T35E98 001:213 JLINK_WriteReg(MSP, 0x20003000)  returns 0x00 (0000ms, 0843ms total)
T35E98 001:213 JLINK_WriteReg(PSP, 0x20003000)  returns 0x00 (0000ms, 0843ms total)
T35E98 001:213 JLINK_WriteReg(CFBP, 0x00000000)  returns 0x00 (0000ms, 0843ms total)
T35E98 001:213 JLINK_SetBPEx(Addr = 0x1FFFF000, Type = 0xFFFFFFF2)  returns 0x00000004 (0000ms, 0843ms total)
T35E98 001:213 JLINK_Go() -- CPU_WriteMem(4 bytes @ 0xE0002000) -- CPU_ReadMem(4 bytes @ 0xE0001000) -- CPU_WriteMem(4 bytes @ 0xE0001000) (0005ms, 0848ms total)
T35E98 001:218 JLINK_IsHalted()  returns TRUE (0005ms, 0853ms total)
T35E98 001:223 JLINK_ReadReg(R15 (PC))  returns 0x1FFFF000 (0000ms, 0848ms total)
T35E98 001:223 JLINK_ClrBPEx(BPHandle = 0x00000004)  returns 0x00 (0000ms, 0848ms total)
T35E98 001:223 JLINK_ReadReg(R0)  returns 0x00000001 (0000ms, 0848ms total)
T35E98 001:223 JLINK_WriteReg(R0, 0x00000400)  returns 0x00 (0001ms, 0849ms total)
T35E98 001:224 JLINK_WriteReg(R1, 0x00000400)  returns 0x00 (0000ms, 0849ms total)
T35E98 001:224 JLINK_WriteReg(R2, 0x000000FF)  returns 0x00 (0000ms, 0849ms total)
T35E98 001:224 JLINK_WriteReg(R3, 0x00000000)  returns 0x00 (0000ms, 0849ms total)
T35E98 001:224 JLINK_WriteReg(R4, 0x00000000)  returns 0x00 (0000ms, 0849ms total)
T35E98 001:224 JLINK_WriteReg(R5, 0x00000000)  returns 0x00 (0000ms, 0849ms total)
T35E98 001:224 JLINK_WriteReg(R6, 0x00000000)  returns 0x00 (0000ms, 0849ms total)
T35E98 001:224 JLINK_WriteReg(R7, 0x00000000)  returns 0x00 (0000ms, 0849ms total)
T35E98 001:224 JLINK_WriteReg(R8, 0x00000000)  returns 0x00 (0000ms, 0849ms total)
T35E98 001:224 JLINK_WriteReg(R9, 0x1FFFF618)  returns 0x00 (0000ms, 0849ms total)
T35E98 001:224 JLINK_WriteReg(R10, 0x00000000)  returns 0x00 (0000ms, 0849ms total)
T35E98 001:224 JLINK_WriteReg(R11, 0x00000000)  returns 0x00 (0000ms, 0849ms total)
T35E98 001:224 JLINK_WriteReg(R12, 0x00000000)  returns 0x00 (0000ms, 0849ms total)
T35E98 001:224 JLINK_WriteReg(R13 (SP), 0x20003000)  returns 0x00 (0000ms, 0849ms total)
T35E98 001:224 JLINK_WriteReg(R14, 0x1FFFF001)  returns 0x00 (0000ms, 0849ms total)
T35E98 001:224 JLINK_WriteReg(R15 (PC), 0x1FFFF0BC)  returns 0x00 (0000ms, 0849ms total)
T35E98 001:224 JLINK_WriteReg(XPSR, 0x01000000)  returns 0x00 (0000ms, 0849ms total)
T35E98 001:224 JLINK_WriteReg(MSP, 0x20003000)  returns 0x00 (0000ms, 0849ms total)
T35E98 001:224 JLINK_WriteReg(PSP, 0x20003000)  returns 0x00 (0000ms, 0849ms total)
T35E98 001:224 JLINK_WriteReg(CFBP, 0x00000000)  returns 0x00 (0000ms, 0849ms total)
T35E98 001:224 JLINK_SetBPEx(Addr = 0x1FFFF000, Type = 0xFFFFFFF2)  returns 0x00000005 (0000ms, 0849ms total)
T35E98 001:224 JLINK_Go() -- CPU_WriteMem(4 bytes @ 0xE0002000) -- CPU_ReadMem(4 bytes @ 0xE0001000) -- CPU_WriteMem(4 bytes @ 0xE0001000) (0006ms, 0855ms total)
T35E98 001:230 JLINK_IsHalted()  returns FALSE (0001ms, 0856ms total)
T35E98 001:265 JLINK_IsHalted()  returns TRUE (0005ms, 0860ms total)
T35E98 001:270 JLINK_ReadReg(R15 (PC))  returns 0x1FFFF000 (0000ms, 0855ms total)
T35E98 001:270 JLINK_ClrBPEx(BPHandle = 0x00000005)  returns 0x00 (0000ms, 0855ms total)
T35E98 001:270 JLINK_ReadReg(R0)  returns 0x00000000 (0000ms, 0855ms total)
T35E98 001:271 JLINK_WriteReg(R0, 0x00000800)  returns 0x00 (0000ms, 0855ms total)
T35E98 001:271 JLINK_WriteReg(R1, 0x00000400)  returns 0x00 (0000ms, 0855ms total)
T35E98 001:271 JLINK_WriteReg(R2, 0x000000FF)  returns 0x00 (0000ms, 0855ms total)
T35E98 001:271 JLINK_WriteReg(R3, 0x00000000)  returns 0x00 (0000ms, 0855ms total)
T35E98 001:271 JLINK_WriteReg(R4, 0x00000000)  returns 0x00 (0000ms, 0855ms total)
T35E98 001:271 JLINK_WriteReg(R5, 0x00000000)  returns 0x00 (0000ms, 0855ms total)
T35E98 001:272 JLINK_WriteReg(R6, 0x00000000)  returns 0x00 (0000ms, 0855ms total)
T35E98 001:272 JLINK_WriteReg(R7, 0x00000000)  returns 0x00 (0000ms, 0855ms total)
T35E98 001:272 JLINK_WriteReg(R8, 0x00000000)  returns 0x00 (0000ms, 0855ms total)
T35E98 001:272 JLINK_WriteReg(R9, 0x1FFFF618)  returns 0x00 (0000ms, 0855ms total)
T35E98 001:272 JLINK_WriteReg(R10, 0x00000000)  returns 0x00 (0000ms, 0855ms total)
T35E98 001:272 JLINK_WriteReg(R11, 0x00000000)  returns 0x00 (0000ms, 0855ms total)
T35E98 001:272 JLINK_WriteReg(R12, 0x00000000)  returns 0x00 (0000ms, 0855ms total)
T35E98 001:272 JLINK_WriteReg(R13 (SP), 0x20003000)  returns 0x00 (0000ms, 0855ms total)
T35E98 001:272 JLINK_WriteReg(R14, 0x1FFFF001)  returns 0x00 (0000ms, 0855ms total)
T35E98 001:272 JLINK_WriteReg(R15 (PC), 0x1FFFF068)  returns 0x00 (0000ms, 0855ms total)
T35E98 001:272 JLINK_WriteReg(XPSR, 0x01000000)  returns 0x00 (0000ms, 0855ms total)
T35E98 001:272 JLINK_WriteReg(MSP, 0x20003000)  returns 0x00 (0000ms, 0855ms total)
T35E98 001:272 JLINK_WriteReg(PSP, 0x20003000)  returns 0x00 (0000ms, 0855ms total)
T35E98 001:272 JLINK_WriteReg(CFBP, 0x00000000)  returns 0x00 (0000ms, 0855ms total)
T35E98 001:272 JLINK_SetBPEx(Addr = 0x1FFFF000, Type = 0xFFFFFFF2)  returns 0x00000006 (0000ms, 0855ms total)
T35E98 001:272 JLINK_Go() -- CPU_WriteMem(4 bytes @ 0xE0002000) -- CPU_ReadMem(4 bytes @ 0xE0001000) -- CPU_WriteMem(4 bytes @ 0xE0001000) (0005ms, 0860ms total)
T35E98 001:277 JLINK_IsHalted()  returns TRUE (0006ms, 0866ms total)
T35E98 001:283 JLINK_ReadReg(R15 (PC))  returns 0x1FFFF000 (0000ms, 0860ms total)
T35E98 001:283 JLINK_ClrBPEx(BPHandle = 0x00000006)  returns 0x00 (0000ms, 0860ms total)
T35E98 001:283 JLINK_ReadReg(R0)  returns 0x00000001 (0000ms, 0860ms total)
T35E98 001:283 JLINK_WriteReg(R0, 0x00000800)  returns 0x00 (0000ms, 0860ms total)
T35E98 001:283 JLINK_WriteReg(R1, 0x00000400)  returns 0x00 (0000ms, 0860ms total)
T35E98 001:283 JLINK_WriteReg(R2, 0x000000FF)  returns 0x00 (0000ms, 0860ms total)
T35E98 001:283 JLINK_WriteReg(R3, 0x00000000)  returns 0x00 (0000ms, 0860ms total)
T35E98 001:283 JLINK_WriteReg(R4, 0x00000000)  returns 0x00 (0000ms, 0860ms total)
T35E98 001:283 JLINK_WriteReg(R5, 0x00000000)  returns 0x00 (0000ms, 0860ms total)
T35E98 001:283 JLINK_WriteReg(R6, 0x00000000)  returns 0x00 (0000ms, 0860ms total)
T35E98 001:283 JLINK_WriteReg(R7, 0x00000000)  returns 0x00 (0000ms, 0860ms total)
T35E98 001:283 JLINK_WriteReg(R8, 0x00000000)  returns 0x00 (0000ms, 0860ms total)
T35E98 001:283 JLINK_WriteReg(R9, 0x1FFFF618)  returns 0x00 (0000ms, 0860ms total)
T35E98 001:283 JLINK_WriteReg(R10, 0x00000000)  returns 0x00 (0000ms, 0860ms total)
T35E98 001:283 JLINK_WriteReg(R11, 0x00000000)  returns 0x00 (0000ms, 0860ms total)
T35E98 001:283 JLINK_WriteReg(R12, 0x00000000)  returns 0x00 (0000ms, 0860ms total)
T35E98 001:283 JLINK_WriteReg(R13 (SP), 0x20003000)  returns 0x00 (0000ms, 0860ms total)
T35E98 001:283 JLINK_WriteReg(R14, 0x1FFFF001)  returns 0x00 (0000ms, 0860ms total)
T35E98 001:283 JLINK_WriteReg(R15 (PC), 0x1FFFF0BC)  returns 0x00 (0000ms, 0860ms total)
T35E98 001:283 JLINK_WriteReg(XPSR, 0x01000000)  returns 0x00 (0000ms, 0860ms total)
T35E98 001:283 JLINK_WriteReg(MSP, 0x20003000)  returns 0x00 (0000ms, 0860ms total)
T35E98 001:284 JLINK_WriteReg(PSP, 0x20003000)  returns 0x00 (0000ms, 0860ms total)
T35E98 001:284 JLINK_WriteReg(CFBP, 0x00000000)  returns 0x00 (0000ms, 0860ms total)
T35E98 001:284 JLINK_SetBPEx(Addr = 0x1FFFF000, Type = 0xFFFFFFF2)  returns 0x00000007 (0000ms, 0860ms total)
T35E98 001:284 JLINK_Go() -- CPU_WriteMem(4 bytes @ 0xE0002000) -- CPU_ReadMem(4 bytes @ 0xE0001000) -- CPU_WriteMem(4 bytes @ 0xE0001000) (0005ms, 0865ms total)
T35E98 001:289 JLINK_IsHalted()  returns FALSE (0001ms, 0866ms total)
T35E98 001:326 JLINK_IsHalted()  returns TRUE (0005ms, 0870ms total)
T35E98 001:331 JLINK_ReadReg(R15 (PC))  returns 0x1FFFF000 (0000ms, 0865ms total)
T35E98 001:331 JLINK_ClrBPEx(BPHandle = 0x00000007)  returns 0x00 (0000ms, 0865ms total)
T35E98 001:331 JLINK_ReadReg(R0)  returns 0x00000000 (0000ms, 0865ms total)
T35E98 001:332 JLINK_WriteReg(R0, 0x00000C00)  returns 0x00 (0000ms, 0865ms total)
T35E98 001:332 JLINK_WriteReg(R1, 0x00000400)  returns 0x00 (0000ms, 0865ms total)
T35E98 001:332 JLINK_WriteReg(R2, 0x000000FF)  returns 0x00 (0000ms, 0865ms total)
T35E98 001:332 JLINK_WriteReg(R3, 0x00000000)  returns 0x00 (0000ms, 0865ms total)
T35E98 001:332 JLINK_WriteReg(R4, 0x00000000)  returns 0x00 (0000ms, 0865ms total)
T35E98 001:332 JLINK_WriteReg(R5, 0x00000000)  returns 0x00 (0000ms, 0865ms total)
T35E98 001:332 JLINK_WriteReg(R6, 0x00000000)  returns 0x00 (0000ms, 0865ms total)
T35E98 001:333 JLINK_WriteReg(R7, 0x00000000)  returns 0x00 (0000ms, 0865ms total)
T35E98 001:333 JLINK_WriteReg(R8, 0x00000000)  returns 0x00 (0000ms, 0865ms total)
T35E98 001:333 JLINK_WriteReg(R9, 0x1FFFF618)  returns 0x00 (0000ms, 0865ms total)
T35E98 001:333 JLINK_WriteReg(R10, 0x00000000)  returns 0x00 (0000ms, 0865ms total)
T35E98 001:333 JLINK_WriteReg(R11, 0x00000000)  returns 0x00 (0000ms, 0865ms total)
T35E98 001:333 JLINK_WriteReg(R12, 0x00000000)  returns 0x00 (0000ms, 0865ms total)
T35E98 001:333 JLINK_WriteReg(R13 (SP), 0x20003000)  returns 0x00 (0000ms, 0865ms total)
T35E98 001:333 JLINK_WriteReg(R14, 0x1FFFF001)  returns 0x00 (0000ms, 0865ms total)
T35E98 001:333 JLINK_WriteReg(R15 (PC), 0x1FFFF068)  returns 0x00 (0000ms, 0865ms total)
T35E98 001:333 JLINK_WriteReg(XPSR, 0x01000000)  returns 0x00 (0000ms, 0865ms total)
T35E98 001:333 JLINK_WriteReg(MSP, 0x20003000)  returns 0x00 (0000ms, 0865ms total)
T35E98 001:333 JLINK_WriteReg(PSP, 0x20003000)  returns 0x00 (0000ms, 0865ms total)
T35E98 001:333 JLINK_WriteReg(CFBP, 0x00000000)  returns 0x00 (0000ms, 0865ms total)
T35E98 001:333 JLINK_SetBPEx(Addr = 0x1FFFF000, Type = 0xFFFFFFF2)  returns 0x00000008 (0000ms, 0865ms total)
T35E98 001:333 JLINK_Go() -- CPU_WriteMem(4 bytes @ 0xE0002000) -- CPU_ReadMem(4 bytes @ 0xE0001000) -- CPU_WriteMem(4 bytes @ 0xE0001000) (0005ms, 0870ms total)
T35E98 001:338 JLINK_IsHalted()  returns TRUE (0006ms, 0876ms total)
T35E98 001:344 JLINK_ReadReg(R15 (PC))  returns 0x1FFFF000 (0000ms, 0870ms total)
T35E98 001:344 JLINK_ClrBPEx(BPHandle = 0x00000008)  returns 0x00 (0000ms, 0870ms total)
T35E98 001:344 JLINK_ReadReg(R0)  returns 0x00000001 (0000ms, 0870ms total)
T35E98 001:344 JLINK_WriteReg(R0, 0x00000C00)  returns 0x00 (0000ms, 0870ms total)
T35E98 001:344 JLINK_WriteReg(R1, 0x00000400)  returns 0x00 (0000ms, 0870ms total)
T35E98 001:344 JLINK_WriteReg(R2, 0x000000FF)  returns 0x00 (0000ms, 0870ms total)
T35E98 001:344 JLINK_WriteReg(R3, 0x00000000)  returns 0x00 (0000ms, 0870ms total)
T35E98 001:344 JLINK_WriteReg(R4, 0x00000000)  returns 0x00 (0000ms, 0870ms total)
T35E98 001:344 JLINK_WriteReg(R5, 0x00000000)  returns 0x00 (0000ms, 0870ms total)
T35E98 001:344 JLINK_WriteReg(R6, 0x00000000)  returns 0x00 (0000ms, 0870ms total)
T35E98 001:344 JLINK_WriteReg(R7, 0x00000000)  returns 0x00 (0000ms, 0870ms total)
T35E98 001:344 JLINK_WriteReg(R8, 0x00000000)  returns 0x00 (0000ms, 0870ms total)
T35E98 001:344 JLINK_WriteReg(R9, 0x1FFFF618)  returns 0x00 (0000ms, 0870ms total)
T35E98 001:344 JLINK_WriteReg(R10, 0x00000000)  returns 0x00 (0000ms, 0870ms total)
T35E98 001:344 JLINK_WriteReg(R11, 0x00000000)  returns 0x00 (0000ms, 0870ms total)
T35E98 001:344 JLINK_WriteReg(R12, 0x00000000)  returns 0x00 (0000ms, 0870ms total)
T35E98 001:344 JLINK_WriteReg(R13 (SP), 0x20003000)  returns 0x00 (0000ms, 0870ms total)
T35E98 001:344 JLINK_WriteReg(R14, 0x1FFFF001)  returns 0x00 (0000ms, 0870ms total)
T35E98 001:344 JLINK_WriteReg(R15 (PC), 0x1FFFF0BC)  returns 0x00 (0001ms, 0871ms total)
T35E98 001:345 JLINK_WriteReg(XPSR, 0x01000000)  returns 0x00 (0000ms, 0871ms total)
T35E98 001:345 JLINK_WriteReg(MSP, 0x20003000)  returns 0x00 (0000ms, 0871ms total)
T35E98 001:345 JLINK_WriteReg(PSP, 0x20003000)  returns 0x00 (0000ms, 0871ms total)
T35E98 001:345 JLINK_WriteReg(CFBP, 0x00000000)  returns 0x00 (0000ms, 0871ms total)
T35E98 001:345 JLINK_SetBPEx(Addr = 0x1FFFF000, Type = 0xFFFFFFF2)  returns 0x00000009 (0000ms, 0871ms total)
T35E98 001:345 JLINK_Go() -- CPU_WriteMem(4 bytes @ 0xE0002000) -- CPU_ReadMem(4 bytes @ 0xE0001000) -- CPU_WriteMem(4 bytes @ 0xE0001000) (0005ms, 0876ms total)
T35E98 001:350 JLINK_IsHalted()  returns FALSE (0001ms, 0877ms total)
T35E98 001:368 JLINK_IsHalted()  returns TRUE (0005ms, 0881ms total)
T35E98 001:373 JLINK_ReadReg(R15 (PC))  returns 0x1FFFF000 (0000ms, 0876ms total)
T35E98 001:373 JLINK_ClrBPEx(BPHandle = 0x00000009)  returns 0x00 (0000ms, 0876ms total)
T35E98 001:373 JLINK_ReadReg(R0)  returns 0x00000000 (0000ms, 0876ms total)
T35E98 001:374 JLINK_WriteReg(R0, 0x00001000)  returns 0x00 (0000ms, 0876ms total)
T35E98 001:374 JLINK_WriteReg(R1, 0x00000400)  returns 0x00 (0000ms, 0876ms total)
T35E98 001:374 JLINK_WriteReg(R2, 0x000000FF)  returns 0x00 (0000ms, 0876ms total)
T35E98 001:374 JLINK_WriteReg(R3, 0x00000000)  returns 0x00 (0000ms, 0876ms total)
T35E98 001:374 JLINK_WriteReg(R4, 0x00000000)  returns 0x00 (0000ms, 0876ms total)
T35E98 001:374 JLINK_WriteReg(R5, 0x00000000)  returns 0x00 (0000ms, 0876ms total)
T35E98 001:375 JLINK_WriteReg(R6, 0x00000000)  returns 0x00 (0000ms, 0877ms total)
T35E98 001:375 JLINK_WriteReg(R7, 0x00000000)  returns 0x00 (0000ms, 0877ms total)
T35E98 001:375 JLINK_WriteReg(R8, 0x00000000)  returns 0x00 (0000ms, 0877ms total)
T35E98 001:375 JLINK_WriteReg(R9, 0x1FFFF618)  returns 0x00 (0000ms, 0877ms total)
T35E98 001:375 JLINK_WriteReg(R10, 0x00000000)  returns 0x00 (0000ms, 0877ms total)
T35E98 001:375 JLINK_WriteReg(R11, 0x00000000)  returns 0x00 (0000ms, 0877ms total)
T35E98 001:375 JLINK_WriteReg(R12, 0x00000000)  returns 0x00 (0000ms, 0877ms total)
T35E98 001:375 JLINK_WriteReg(R13 (SP), 0x20003000)  returns 0x00 (0000ms, 0877ms total)
T35E98 001:375 JLINK_WriteReg(R14, 0x1FFFF001)  returns 0x00 (0000ms, 0877ms total)
T35E98 001:375 JLINK_WriteReg(R15 (PC), 0x1FFFF068)  returns 0x00 (0000ms, 0877ms total)
T35E98 001:375 JLINK_WriteReg(XPSR, 0x01000000)  returns 0x00 (0000ms, 0877ms total)
T35E98 001:375 JLINK_WriteReg(MSP, 0x20003000)  returns 0x00 (0000ms, 0877ms total)
T35E98 001:375 JLINK_WriteReg(PSP, 0x20003000)  returns 0x00 (0000ms, 0877ms total)
T35E98 001:375 JLINK_WriteReg(CFBP, 0x00000000)  returns 0x00 (0000ms, 0877ms total)
T35E98 001:375 JLINK_SetBPEx(Addr = 0x1FFFF000, Type = 0xFFFFFFF2)  returns 0x0000000A (0000ms, 0877ms total)
T35E98 001:375 JLINK_Go() -- CPU_WriteMem(4 bytes @ 0xE0002000) -- CPU_ReadMem(4 bytes @ 0xE0001000) -- CPU_WriteMem(4 bytes @ 0xE0001000) (0005ms, 0882ms total)
T35E98 001:380 JLINK_IsHalted()  returns TRUE (0005ms, 0887ms total)
T35E98 001:385 JLINK_ReadReg(R15 (PC))  returns 0x1FFFF000 (0001ms, 0883ms total)
T35E98 001:386 JLINK_ClrBPEx(BPHandle = 0x0000000A)  returns 0x00 (0000ms, 0883ms total)
T35E98 001:386 JLINK_ReadReg(R0)  returns 0x00000001 (0000ms, 0883ms total)
T35E98 001:386 JLINK_WriteReg(R0, 0x00001000)  returns 0x00 (0000ms, 0883ms total)
T35E98 001:386 JLINK_WriteReg(R1, 0x00000400)  returns 0x00 (0000ms, 0883ms total)
T35E98 001:386 JLINK_WriteReg(R2, 0x000000FF)  returns 0x00 (0000ms, 0883ms total)
T35E98 001:386 JLINK_WriteReg(R3, 0x00000000)  returns 0x00 (0000ms, 0883ms total)
T35E98 001:386 JLINK_WriteReg(R4, 0x00000000)  returns 0x00 (0000ms, 0883ms total)
T35E98 001:386 JLINK_WriteReg(R5, 0x00000000)  returns 0x00 (0000ms, 0883ms total)
T35E98 001:386 JLINK_WriteReg(R6, 0x00000000)  returns 0x00 (0000ms, 0883ms total)
T35E98 001:386 JLINK_WriteReg(R7, 0x00000000)  returns 0x00 (0000ms, 0883ms total)
T35E98 001:386 JLINK_WriteReg(R8, 0x00000000)  returns 0x00 (0000ms, 0883ms total)
T35E98 001:386 JLINK_WriteReg(R9, 0x1FFFF618)  returns 0x00 (0000ms, 0883ms total)
T35E98 001:386 JLINK_WriteReg(R10, 0x00000000)  returns 0x00 (0000ms, 0883ms total)
T35E98 001:386 JLINK_WriteReg(R11, 0x00000000)  returns 0x00 (0000ms, 0883ms total)
T35E98 001:386 JLINK_WriteReg(R12, 0x00000000)  returns 0x00 (0000ms, 0883ms total)
T35E98 001:386 JLINK_WriteReg(R13 (SP), 0x20003000)  returns 0x00 (0000ms, 0883ms total)
T35E98 001:386 JLINK_WriteReg(R14, 0x1FFFF001)  returns 0x00 (0000ms, 0883ms total)
T35E98 001:386 JLINK_WriteReg(R15 (PC), 0x1FFFF0BC)  returns 0x00 (0000ms, 0883ms total)
T35E98 001:386 JLINK_WriteReg(XPSR, 0x01000000)  returns 0x00 (0000ms, 0883ms total)
T35E98 001:386 JLINK_WriteReg(MSP, 0x20003000)  returns 0x00 (0000ms, 0883ms total)
T35E98 001:387 JLINK_WriteReg(PSP, 0x20003000)  returns 0x00 (0000ms, 0884ms total)
T35E98 001:387 JLINK_WriteReg(CFBP, 0x00000000)  returns 0x00 (0000ms, 0884ms total)
T35E98 001:387 JLINK_SetBPEx(Addr = 0x1FFFF000, Type = 0xFFFFFFF2)  returns 0x0000000B (0000ms, 0884ms total)
T35E98 001:387 JLINK_Go() -- CPU_WriteMem(4 bytes @ 0xE0002000) -- CPU_ReadMem(4 bytes @ 0xE0001000) -- CPU_WriteMem(4 bytes @ 0xE0001000) (0005ms, 0889ms total)
T35E98 001:392 JLINK_IsHalted()  returns FALSE (0001ms, 0890ms total)
T35E98 001:403 JLINK_IsHalted()  returns TRUE (0005ms, 0894ms total)
T35E98 001:408 JLINK_ReadReg(R15 (PC))  returns 0x1FFFF000 (0000ms, 0889ms total)
T35E98 001:408 JLINK_ClrBPEx(BPHandle = 0x0000000B)  returns 0x00 (0000ms, 0889ms total)
T35E98 001:408 JLINK_ReadReg(R0)  returns 0x00000000 (0000ms, 0889ms total)
T35E98 001:409 JLINK_WriteReg(R0, 0x00001400)  returns 0x00 (0000ms, 0889ms total)
T35E98 001:409 JLINK_WriteReg(R1, 0x00000400)  returns 0x00 (0000ms, 0889ms total)
T35E98 001:409 JLINK_WriteReg(R2, 0x000000FF)  returns 0x00 (0000ms, 0889ms total)
T35E98 001:409 JLINK_WriteReg(R3, 0x00000000)  returns 0x00 (0000ms, 0889ms total)
T35E98 001:409 JLINK_WriteReg(R4, 0x00000000)  returns 0x00 (0000ms, 0889ms total)
T35E98 001:409 JLINK_WriteReg(R5, 0x00000000)  returns 0x00 (0000ms, 0889ms total)
T35E98 001:409 JLINK_WriteReg(R6, 0x00000000)  returns 0x00 (0000ms, 0889ms total)
T35E98 001:410 JLINK_WriteReg(R7, 0x00000000)  returns 0x00 (0000ms, 0889ms total)
T35E98 001:410 JLINK_WriteReg(R8, 0x00000000)  returns 0x00 (0000ms, 0889ms total)
T35E98 001:410 JLINK_WriteReg(R9, 0x1FFFF618)  returns 0x00 (0000ms, 0889ms total)
T35E98 001:410 JLINK_WriteReg(R10, 0x00000000)  returns 0x00 (0000ms, 0889ms total)
T35E98 001:410 JLINK_WriteReg(R11, 0x00000000)  returns 0x00 (0000ms, 0889ms total)
T35E98 001:410 JLINK_WriteReg(R12, 0x00000000)  returns 0x00 (0000ms, 0889ms total)
T35E98 001:410 JLINK_WriteReg(R13 (SP), 0x20003000)  returns 0x00 (0000ms, 0889ms total)
T35E98 001:410 JLINK_WriteReg(R14, 0x1FFFF001)  returns 0x00 (0000ms, 0889ms total)
T35E98 001:410 JLINK_WriteReg(R15 (PC), 0x1FFFF068)  returns 0x00 (0000ms, 0889ms total)
T35E98 001:410 JLINK_WriteReg(XPSR, 0x01000000)  returns 0x00 (0000ms, 0889ms total)
T35E98 001:410 JLINK_WriteReg(MSP, 0x20003000)  returns 0x00 (0000ms, 0889ms total)
T35E98 001:410 JLINK_WriteReg(PSP, 0x20003000)  returns 0x00 (0000ms, 0889ms total)
T35E98 001:410 JLINK_WriteReg(CFBP, 0x00000000)  returns 0x00 (0000ms, 0889ms total)
T35E98 001:410 JLINK_SetBPEx(Addr = 0x1FFFF000, Type = 0xFFFFFFF2)  returns 0x0000000C (0000ms, 0889ms total)
T35E98 001:410 JLINK_Go() -- CPU_WriteMem(4 bytes @ 0xE0002000) -- CPU_ReadMem(4 bytes @ 0xE0001000) -- CPU_WriteMem(4 bytes @ 0xE0001000) (0005ms, 0894ms total)
T35E98 001:415 JLINK_IsHalted()  returns TRUE (0006ms, 0900ms total)
T35E98 001:421 JLINK_ReadReg(R15 (PC))  returns 0x1FFFF000 (0000ms, 0894ms total)
T35E98 001:421 JLINK_ClrBPEx(BPHandle = 0x0000000C)  returns 0x00 (0000ms, 0894ms total)
T35E98 001:421 JLINK_ReadReg(R0)  returns 0x00000001 (0000ms, 0894ms total)
T35E98 001:421 JLINK_WriteReg(R0, 0x00001400)  returns 0x00 (0000ms, 0894ms total)
T35E98 001:421 JLINK_WriteReg(R1, 0x00000400)  returns 0x00 (0000ms, 0894ms total)
T35E98 001:421 JLINK_WriteReg(R2, 0x000000FF)  returns 0x00 (0000ms, 0894ms total)
T35E98 001:421 JLINK_WriteReg(R3, 0x00000000)  returns 0x00 (0000ms, 0894ms total)
T35E98 001:421 JLINK_WriteReg(R4, 0x00000000)  returns 0x00 (0000ms, 0894ms total)
T35E98 001:421 JLINK_WriteReg(R5, 0x00000000)  returns 0x00 (0000ms, 0894ms total)
T35E98 001:421 JLINK_WriteReg(R6, 0x00000000)  returns 0x00 (0000ms, 0894ms total)
T35E98 001:421 JLINK_WriteReg(R7, 0x00000000)  returns 0x00 (0000ms, 0894ms total)
T35E98 001:421 JLINK_WriteReg(R8, 0x00000000)  returns 0x00 (0000ms, 0894ms total)
T35E98 001:421 JLINK_WriteReg(R9, 0x1FFFF618)  returns 0x00 (0000ms, 0894ms total)
T35E98 001:421 JLINK_WriteReg(R10, 0x00000000)  returns 0x00 (0000ms, 0894ms total)
T35E98 001:421 JLINK_WriteReg(R11, 0x00000000)  returns 0x00 (0000ms, 0894ms total)
T35E98 001:421 JLINK_WriteReg(R12, 0x00000000)  returns 0x00 (0000ms, 0894ms total)
T35E98 001:421 JLINK_WriteReg(R13 (SP), 0x20003000)  returns 0x00 (0000ms, 0894ms total)
T35E98 001:421 JLINK_WriteReg(R14, 0x1FFFF001)  returns 0x00 (0000ms, 0894ms total)
T35E98 001:421 JLINK_WriteReg(R15 (PC), 0x1FFFF0BC)  returns 0x00 (0000ms, 0894ms total)
T35E98 001:421 JLINK_WriteReg(XPSR, 0x01000000)  returns 0x00 (0001ms, 0895ms total)
T35E98 001:422 JLINK_WriteReg(MSP, 0x20003000)  returns 0x00 (0000ms, 0895ms total)
T35E98 001:422 JLINK_WriteReg(PSP, 0x20003000)  returns 0x00 (0000ms, 0895ms total)
T35E98 001:422 JLINK_WriteReg(CFBP, 0x00000000)  returns 0x00 (0000ms, 0895ms total)
T35E98 001:422 JLINK_SetBPEx(Addr = 0x1FFFF000, Type = 0xFFFFFFF2)  returns 0x0000000D (0000ms, 0895ms total)
T35E98 001:422 JLINK_Go() -- CPU_WriteMem(4 bytes @ 0xE0002000) -- CPU_ReadMem(4 bytes @ 0xE0001000) -- CPU_WriteMem(4 bytes @ 0xE0001000) (0005ms, 0900ms total)
T35E98 001:427 JLINK_IsHalted()  returns FALSE (0001ms, 0901ms total)
T35E98 001:474 JLINK_IsHalted()  returns TRUE (0005ms, 0905ms total)
T35E98 001:479 JLINK_ReadReg(R15 (PC))  returns 0x1FFFF000 (0000ms, 0900ms total)
T35E98 001:479 JLINK_ClrBPEx(BPHandle = 0x0000000D)  returns 0x00 (0000ms, 0900ms total)
T35E98 001:479 JLINK_ReadReg(R0)  returns 0x00000000 (0000ms, 0900ms total)
T35E98 001:480 JLINK_WriteReg(R0, 0x00001800)  returns 0x00 (0000ms, 0900ms total)
T35E98 001:480 JLINK_WriteReg(R1, 0x00000400)  returns 0x00 (0000ms, 0900ms total)
T35E98 001:480 JLINK_WriteReg(R2, 0x000000FF)  returns 0x00 (0000ms, 0900ms total)
T35E98 001:480 JLINK_WriteReg(R3, 0x00000000)  returns 0x00 (0000ms, 0900ms total)
T35E98 001:480 JLINK_WriteReg(R4, 0x00000000)  returns 0x00 (0001ms, 0901ms total)
T35E98 001:481 JLINK_WriteReg(R5, 0x00000000)  returns 0x00 (0000ms, 0901ms total)
T35E98 001:481 JLINK_WriteReg(R6, 0x00000000)  returns 0x00 (0000ms, 0901ms total)
T35E98 001:481 JLINK_WriteReg(R7, 0x00000000)  returns 0x00 (0000ms, 0901ms total)
T35E98 001:481 JLINK_WriteReg(R8, 0x00000000)  returns 0x00 (0000ms, 0901ms total)
T35E98 001:481 JLINK_WriteReg(R9, 0x1FFFF618)  returns 0x00 (0000ms, 0901ms total)
T35E98 001:481 JLINK_WriteReg(R10, 0x00000000)  returns 0x00 (0000ms, 0901ms total)
T35E98 001:481 JLINK_WriteReg(R11, 0x00000000)  returns 0x00 (0000ms, 0901ms total)
T35E98 001:481 JLINK_WriteReg(R12, 0x00000000)  returns 0x00 (0000ms, 0901ms total)
T35E98 001:481 JLINK_WriteReg(R13 (SP), 0x20003000)  returns 0x00 (0000ms, 0901ms total)
T35E98 001:481 JLINK_WriteReg(R14, 0x1FFFF001)  returns 0x00 (0000ms, 0901ms total)
T35E98 001:481 JLINK_WriteReg(R15 (PC), 0x1FFFF068)  returns 0x00 (0000ms, 0901ms total)
T35E98 001:481 JLINK_WriteReg(XPSR, 0x01000000)  returns 0x00 (0000ms, 0901ms total)
T35E98 001:481 JLINK_WriteReg(MSP, 0x20003000)  returns 0x00 (0000ms, 0901ms total)
T35E98 001:481 JLINK_WriteReg(PSP, 0x20003000)  returns 0x00 (0000ms, 0901ms total)
T35E98 001:481 JLINK_WriteReg(CFBP, 0x00000000)  returns 0x00 (0000ms, 0901ms total)
T35E98 001:481 JLINK_SetBPEx(Addr = 0x1FFFF000, Type = 0xFFFFFFF2)  returns 0x0000000E (0000ms, 0901ms total)
T35E98 001:481 JLINK_Go() -- CPU_WriteMem(4 bytes @ 0xE0002000) -- CPU_ReadMem(4 bytes @ 0xE0001000) -- CPU_WriteMem(4 bytes @ 0xE0001000) (0005ms, 0906ms total)
T35E98 001:486 JLINK_IsHalted()  returns TRUE (0006ms, 0912ms total)
T35E98 001:492 JLINK_ReadReg(R15 (PC))  returns 0x1FFFF000 (0000ms, 0906ms total)
T35E98 001:492 JLINK_ClrBPEx(BPHandle = 0x0000000E)  returns 0x00 (0000ms, 0906ms total)
T35E98 001:492 JLINK_ReadReg(R0)  returns 0x00000001 (0000ms, 0906ms total)
T35E98 001:492 JLINK_WriteReg(R0, 0x00001800)  returns 0x00 (0000ms, 0906ms total)
T35E98 001:492 JLINK_WriteReg(R1, 0x00000400)  returns 0x00 (0000ms, 0906ms total)
T35E98 001:492 JLINK_WriteReg(R2, 0x000000FF)  returns 0x00 (0000ms, 0906ms total)
T35E98 001:492 JLINK_WriteReg(R3, 0x00000000)  returns 0x00 (0000ms, 0906ms total)
T35E98 001:492 JLINK_WriteReg(R4, 0x00000000)  returns 0x00 (0000ms, 0906ms total)
T35E98 001:492 JLINK_WriteReg(R5, 0x00000000)  returns 0x00 (0000ms, 0906ms total)
T35E98 001:492 JLINK_WriteReg(R6, 0x00000000)  returns 0x00 (0000ms, 0906ms total)
T35E98 001:492 JLINK_WriteReg(R7, 0x00000000)  returns 0x00 (0000ms, 0906ms total)
T35E98 001:492 JLINK_WriteReg(R8, 0x00000000)  returns 0x00 (0000ms, 0906ms total)
T35E98 001:492 JLINK_WriteReg(R9, 0x1FFFF618)  returns 0x00 (0000ms, 0906ms total)
T35E98 001:492 JLINK_WriteReg(R10, 0x00000000)  returns 0x00 (0000ms, 0906ms total)
T35E98 001:492 JLINK_WriteReg(R11, 0x00000000)  returns 0x00 (0000ms, 0906ms total)
T35E98 001:492 JLINK_WriteReg(R12, 0x00000000)  returns 0x00 (0000ms, 0906ms total)
T35E98 001:492 JLINK_WriteReg(R13 (SP), 0x20003000)  returns 0x00 (0000ms, 0906ms total)
T35E98 001:492 JLINK_WriteReg(R14, 0x1FFFF001)  returns 0x00 (0001ms, 0907ms total)
T35E98 001:493 JLINK_WriteReg(R15 (PC), 0x1FFFF0BC)  returns 0x00 (0000ms, 0907ms total)
T35E98 001:493 JLINK_WriteReg(XPSR, 0x01000000)  returns 0x00 (0000ms, 0907ms total)
T35E98 001:493 JLINK_WriteReg(MSP, 0x20003000)  returns 0x00 (0000ms, 0907ms total)
T35E98 001:493 JLINK_WriteReg(PSP, 0x20003000)  returns 0x00 (0000ms, 0907ms total)
T35E98 001:493 JLINK_WriteReg(CFBP, 0x00000000)  returns 0x00 (0000ms, 0907ms total)
T35E98 001:493 JLINK_SetBPEx(Addr = 0x1FFFF000, Type = 0xFFFFFFF2)  returns 0x0000000F (0000ms, 0907ms total)
T35E98 001:493 JLINK_Go() -- CPU_WriteMem(4 bytes @ 0xE0002000) -- CPU_ReadMem(4 bytes @ 0xE0001000) -- CPU_WriteMem(4 bytes @ 0xE0001000) (0005ms, 0912ms total)
T35E98 001:498 JLINK_IsHalted()  returns FALSE (0001ms, 0913ms total)
T35E98 001:508 JLINK_IsHalted()  returns TRUE (0005ms, 0917ms total)
T35E98 001:513 JLINK_ReadReg(R15 (PC))  returns 0x1FFFF000 (0001ms, 0913ms total)
T35E98 001:514 JLINK_ClrBPEx(BPHandle = 0x0000000F)  returns 0x00 (0000ms, 0913ms total)
T35E98 001:514 JLINK_ReadReg(R0)  returns 0x00000000 (0000ms, 0913ms total)
T35E98 001:515 JLINK_WriteReg(R0, 0x00001C00)  returns 0x00 (0000ms, 0913ms total)
T35E98 001:515 JLINK_WriteReg(R1, 0x00000400)  returns 0x00 (0000ms, 0913ms total)
T35E98 001:515 JLINK_WriteReg(R2, 0x000000FF)  returns 0x00 (0000ms, 0913ms total)
T35E98 001:515 JLINK_WriteReg(R3, 0x00000000)  returns 0x00 (0000ms, 0913ms total)
T35E98 001:515 JLINK_WriteReg(R4, 0x00000000)  returns 0x00 (0000ms, 0913ms total)
T35E98 001:515 JLINK_WriteReg(R5, 0x00000000)  returns 0x00 (0000ms, 0913ms total)
T35E98 001:515 JLINK_WriteReg(R6, 0x00000000)  returns 0x00 (0000ms, 0913ms total)
T35E98 001:515 JLINK_WriteReg(R7, 0x00000000)  returns 0x00 (0000ms, 0913ms total)
T35E98 001:515 JLINK_WriteReg(R8, 0x00000000)  returns 0x00 (0000ms, 0913ms total)
T35E98 001:515 JLINK_WriteReg(R9, 0x1FFFF618)  returns 0x00 (0000ms, 0913ms total)
T35E98 001:515 JLINK_WriteReg(R10, 0x00000000)  returns 0x00 (0000ms, 0913ms total)
T35E98 001:515 JLINK_WriteReg(R11, 0x00000000)  returns 0x00 (0000ms, 0913ms total)
T35E98 001:515 JLINK_WriteReg(R12, 0x00000000)  returns 0x00 (0000ms, 0913ms total)
T35E98 001:515 JLINK_WriteReg(R13 (SP), 0x20003000)  returns 0x00 (0000ms, 0913ms total)
T35E98 001:515 JLINK_WriteReg(R14, 0x1FFFF001)  returns 0x00 (0000ms, 0913ms total)
T35E98 001:515 JLINK_WriteReg(R15 (PC), 0x1FFFF068)  returns 0x00 (0000ms, 0913ms total)
T35E98 001:515 JLINK_WriteReg(XPSR, 0x01000000)  returns 0x00 (0000ms, 0913ms total)
T35E98 001:515 JLINK_WriteReg(MSP, 0x20003000)  returns 0x00 (0000ms, 0913ms total)
T35E98 001:515 JLINK_WriteReg(PSP, 0x20003000)  returns 0x00 (0000ms, 0913ms total)
T35E98 001:515 JLINK_WriteReg(CFBP, 0x00000000)  returns 0x00 (0001ms, 0914ms total)
T35E98 001:516 JLINK_SetBPEx(Addr = 0x1FFFF000, Type = 0xFFFFFFF2)  returns 0x00000010 (0000ms, 0914ms total)
T35E98 001:516 JLINK_Go() -- CPU_WriteMem(4 bytes @ 0xE0002000) -- CPU_ReadMem(4 bytes @ 0xE0001000) -- CPU_WriteMem(4 bytes @ 0xE0001000) (0005ms, 0919ms total)
T35E98 001:521 JLINK_IsHalted()  returns TRUE (0005ms, 0924ms total)
T35E98 001:526 JLINK_ReadReg(R15 (PC))  returns 0x1FFFF000 (0000ms, 0919ms total)
T35E98 001:526 JLINK_ClrBPEx(BPHandle = 0x00000010)  returns 0x00 (0000ms, 0919ms total)
T35E98 001:526 JLINK_ReadReg(R0)  returns 0x00000001 (0001ms, 0920ms total)
T35E98 001:527 JLINK_WriteReg(R0, 0x00001C00)  returns 0x00 (0000ms, 0920ms total)
T35E98 001:527 JLINK_WriteReg(R1, 0x00000400)  returns 0x00 (0000ms, 0920ms total)
T35E98 001:527 JLINK_WriteReg(R2, 0x000000FF)  returns 0x00 (0000ms, 0920ms total)
T35E98 001:527 JLINK_WriteReg(R3, 0x00000000)  returns 0x00 (0000ms, 0920ms total)
T35E98 001:527 JLINK_WriteReg(R4, 0x00000000)  returns 0x00 (0000ms, 0920ms total)
T35E98 001:527 JLINK_WriteReg(R5, 0x00000000)  returns 0x00 (0000ms, 0920ms total)
T35E98 001:527 JLINK_WriteReg(R6, 0x00000000)  returns 0x00 (0000ms, 0920ms total)
T35E98 001:527 JLINK_WriteReg(R7, 0x00000000)  returns 0x00 (0000ms, 0920ms total)
T35E98 001:527 JLINK_WriteReg(R8, 0x00000000)  returns 0x00 (0000ms, 0920ms total)
T35E98 001:527 JLINK_WriteReg(R9, 0x1FFFF618)  returns 0x00 (0000ms, 0920ms total)
T35E98 001:527 JLINK_WriteReg(R10, 0x00000000)  returns 0x00 (0000ms, 0920ms total)
T35E98 001:527 JLINK_WriteReg(R11, 0x00000000)  returns 0x00 (0000ms, 0920ms total)
T35E98 001:527 JLINK_WriteReg(R12, 0x00000000)  returns 0x00 (0000ms, 0920ms total)
T35E98 001:527 JLINK_WriteReg(R13 (SP), 0x20003000)  returns 0x00 (0000ms, 0920ms total)
T35E98 001:527 JLINK_WriteReg(R14, 0x1FFFF001)  returns 0x00 (0000ms, 0920ms total)
T35E98 001:527 JLINK_WriteReg(R15 (PC), 0x1FFFF0BC)  returns 0x00 (0000ms, 0920ms total)
T35E98 001:527 JLINK_WriteReg(XPSR, 0x01000000)  returns 0x00 (0000ms, 0920ms total)
T35E98 001:527 JLINK_WriteReg(MSP, 0x20003000)  returns 0x00 (0000ms, 0920ms total)
T35E98 001:527 JLINK_WriteReg(PSP, 0x20003000)  returns 0x00 (0000ms, 0920ms total)
T35E98 001:527 JLINK_WriteReg(CFBP, 0x00000000)  returns 0x00 (0000ms, 0920ms total)
T35E98 001:527 JLINK_SetBPEx(Addr = 0x1FFFF000, Type = 0xFFFFFFF2)  returns 0x00000011 (0000ms, 0920ms total)
T35E98 001:527 JLINK_Go() -- CPU_WriteMem(4 bytes @ 0xE0002000) -- CPU_ReadMem(4 bytes @ 0xE0001000) -- CPU_WriteMem(4 bytes @ 0xE0001000) (0006ms, 0926ms total)
T35E98 001:533 JLINK_IsHalted()  returns FALSE (0000ms, 0926ms total)
T35E98 001:582 JLINK_IsHalted()  returns TRUE (0006ms, 0932ms total)
T35E98 001:588 JLINK_ReadReg(R15 (PC))  returns 0x1FFFF000 (0000ms, 0926ms total)
T35E98 001:588 JLINK_ClrBPEx(BPHandle = 0x00000011)  returns 0x00 (0000ms, 0926ms total)
T35E98 001:588 JLINK_ReadReg(R0)  returns 0x00000000 (0000ms, 0926ms total)
T35E98 001:589 JLINK_WriteReg(R0, 0x00002000)  returns 0x00 (0000ms, 0926ms total)
T35E98 001:589 JLINK_WriteReg(R1, 0x00000400)  returns 0x00 (0000ms, 0926ms total)
T35E98 001:589 JLINK_WriteReg(R2, 0x000000FF)  returns 0x00 (0000ms, 0926ms total)
T35E98 001:589 JLINK_WriteReg(R3, 0x00000000)  returns 0x00 (0000ms, 0926ms total)
T35E98 001:589 JLINK_WriteReg(R4, 0x00000000)  returns 0x00 (0000ms, 0926ms total)
T35E98 001:589 JLINK_WriteReg(R5, 0x00000000)  returns 0x00 (0000ms, 0926ms total)
T35E98 001:589 JLINK_WriteReg(R6, 0x00000000)  returns 0x00 (0000ms, 0926ms total)
T35E98 001:589 JLINK_WriteReg(R7, 0x00000000)  returns 0x00 (0000ms, 0926ms total)
T35E98 001:589 JLINK_WriteReg(R8, 0x00000000)  returns 0x00 (0000ms, 0926ms total)
T35E98 001:589 JLINK_WriteReg(R9, 0x1FFFF618)  returns 0x00 (0000ms, 0926ms total)
T35E98 001:589 JLINK_WriteReg(R10, 0x00000000)  returns 0x00 (0000ms, 0926ms total)
T35E98 001:589 JLINK_WriteReg(R11, 0x00000000)  returns 0x00 (0000ms, 0926ms total)
T35E98 001:589 JLINK_WriteReg(R12, 0x00000000)  returns 0x00 (0000ms, 0926ms total)
T35E98 001:589 JLINK_WriteReg(R13 (SP), 0x20003000)  returns 0x00 (0000ms, 0926ms total)
T35E98 001:589 JLINK_WriteReg(R14, 0x1FFFF001)  returns 0x00 (0000ms, 0926ms total)
T35E98 001:589 JLINK_WriteReg(R15 (PC), 0x1FFFF068)  returns 0x00 (0000ms, 0926ms total)
